! Touchstone file exported from HFSS 2020.1.0
!        File:           D:/Users/rblandin/Documents/Ansoft/scatterer_in_waveguide.aedt
!        Generated:      5:09:03  janv. 16, 2025
!        Design:         HFSSDesign1
!        Project:        scatterer_in_waveguide
!        Setup:          scatmat
!        Solution:       Sweep
!
! Variables:
!        $height = 5mm
!        $pos_x = 100mm
!        $pos_x_1 = 28.772922mm
!        $pos_x_2 = 55.98679mm
!        $pos_x_3 = 44.27246mm
!        $pos_y = 25mm
!        $pos_y_1 = 43.348048mm
!        $pos_y_2 = 48.8323mm
!        $pos_y_3 = 236.06804mm
!        $radius = 3.1mm
!
# GHZ S MA R 50.000000
! Terminal data exported
! Port[1] = 1:1
! Port[2] = 1:2
! Port[3] = 1:3
! Port[4] = 1:4
! Port[5] = 2:1
! Port[6] = 2:2
! Port[7] = 2:3
! Port[8] = 2:4
6                              0.202869411184709 -24.9099512071974 0.241828786286301 -90.0884872407371 0.0837775604564646 152.63283633395  0.125469473222598 -131.643369035923 
                0.882870864029218 84.6787267922959 0.171579945097211 -65.6773577110693 0.108800920720663 -21.4551622528977 0.168185414852237 60.2887736118104 
                0.241828786286301 -90.0884872407371 0.365318194547862 4.79913650504396 0.327719758844546 -127.796746867934 0.378252796085388 -100.12992132689 
                0.105623194462861 -129.051771141696 0.598722493155564 -152.506320873724 0.38318216400531 -147.835224123043 0.133117898904202 46.3499663159342 
                0.0837775604564654 152.632836333949 0.327719758844545 -127.796746867935 0.493485798503647 72.1556723991366 0.373037377385076 149.280948074414 
                0.30184898576141 -152.418390900571 0.324817048803014 -93.5004200816397 0.528837516898197 -103.223034337389 0.0871488126691366 42.5106282076514 
                0.125469473222598 -131.643369035923 0.378252796085388 -100.12992132689 0.373037377385078 149.280948074414 0.606935483433037 10.925330655244  
                0.0902178188654853 -97.839057360062 0.38296149835028 -65.7692486317129 0.399743534966904 136.229405334054 0.0907209564460839 -32.2151570648672 
                0.882870864029219 84.6787267922959 0.105623194462861 -129.051771141696 0.30184898576141 -152.418390900571 0.0902178188654853 -97.8390573600618 
                0.170021791870328 12.1468510795255 0.121694794199856 -137.996267489661 0.206409326026529 -133.350991234471 0.0908057927238754 -129.240976962928 
                0.171579945097214 -65.6773577110692 0.598722493155563 -152.506320873724 0.324817048803015 -93.5004200816397 0.38296149835028 -65.7692486317132 
                0.121694794199857 -137.996267489661 0.423589876614537 67.1994830598285 0.366790573511303 -111.382073478647 0.0916957299613604 53.7480031790588 
                0.108800920720663 -21.4551622528979 0.383182164005309 -147.835224123043 0.528837516898198 -103.223034337389 0.399743534966904 136.229405334055 
                0.206409326026529 -133.350991234471 0.366790573511302 -111.382073478646 0.429079288224971 42.8014526960543 0.106276277268967 11.7175364826742 
                0.168185414852237 60.2887736118105 0.133117898904202 46.3499663159342 0.087148812669137 42.5106282076513 0.090720956446084 -32.2151570648671 
                0.0908057927238755 -129.240976962927 0.0916957299613596 53.7480031790594 0.106276277268967 11.7175364826744 0.95912968911575 7.30740488853849 
! Gamma         0.00699567827980243 121.809177520327 0                0                0                0                0                0                
!               0                0                0                0                0                0                0                0                
!               0                0                0.00805100791079563 108.979604155879 0                0                0                0                
!               0                0                0                0                0                0                0                0                
!               0                0                0                0                0.011034917052032 83.313281867751  0                0                
!               0                0                0                0                0                0                0                0                
!               0                0                0                0                0                0                0.183031867337406 5.3394121610308  
!               0                0                0                0                0                0                0                0                
!               0                0                0                0                0                0                0                0                
!               0.00699568407379408 121.809175935287 0                0                0                0                0                0                
!               0                0                0                0                0                0                0                0                
!               0                0                0.00805102663569098 108.979565610669 0                0                0                0                
!               0                0                0                0                0                0                0                0                
!               0                0                0                0                0.0110343553422968 83.3118197799664 0                0                
!               0                0                0                0                0                0                0                0                
!               0                0                0                0                0                0                0.189706115624118 5.14960231409612 
! Port Impedance50               0                0                0                0                0                0                0                
!               0                0                0                0                0                0                0                0                
!               0                0                50               0                0                0                0                0                
!               0                0                0                0                0                0                0                0                
!               0                0                0                0                50               0                0                0                
!               0                0                0                0                0                0                0                0                
!               0                0                0                0                0                0                50               0                
!               0                0                0                0                0                0                0                0                
!               0                0                0                0                0                0                0                0                
!               50               0                0                0                0                0                0                0                
!               0                0                0                0                0                0                0                0                
!               0                0                50               0                0                0                0                0                
!               0                0                0                0                0                0                0                0                
!               0                0                0                0                50               0                0                0                
!               0                0                0                0                0                0                0                0                
!               0                0                0                0                0                0                50               0                

6.02                           0.0987267944530043 -120.925632921546 0.245569971331088 -130.914972910256 0.230304091783913 175.969536313126 0.043307646393775 172.562706996946 
                0.913654434571506 63.4412802166225 0.111271209901112 -121.494647471447 0.0554831727833719 161.30935089622  0.120367518346512 28.2696143847126 
                0.245569971331086 -130.914972910256 0.15007214734111 8.36105217652564 0.234568214008617 -171.804183083873 0.32115078583914 -130.024891209413 
                0.167149222740016 -123.955724338678 0.79242908483754 -162.424709863555 0.28341048634096 154.384394476378 0.102082477192164 20.1880856818139 
                0.230304091783916 175.969536313127 0.234568214008611 -171.804183083872 0.279652005910298 47.3190841524569 0.391009049156354 98.335169036782  
                0.118642071058963 178.256803230137 0.16731326505263 -168.613336888306 0.769935282500523 -113.309974524756 0.0695234638438702 -7.75906876511956 
                0.0433076463937746 172.562706996948 0.321150785839132 -130.024891209412 0.391009049156355 98.3351690367824 0.598732842859491 40.6899256101111 
                0.196536470690474 -163.347331884549 0.388922223212206 -107.076902431564 0.408933481671473 68.7511824490383 0.0813056280307985 -46.7951498155845 
                0.913654434571506 63.4412802166223 0.167149222740012 -123.955724338678 0.118642071058963 178.256803230139 0.196536470690473 -163.347331884549 
                0.000471008336007045 -113.664780465858 0.245415509293963 -133.454648776712 0.0934533448014835 -82.8644896502227 0.0550758849511845 -144.678431120036 
                0.11127120990111 -121.494647471446 0.792429084837539 -162.424709863556 0.167313265052631 -168.613336888305 0.388922223212207 -107.076902431564 
                0.245415509293961 -133.454648776712 0.228795692385539 29.3228966212894 0.207175955084584 157.71548937875  0.0784772015621457 27.3763078947914 
                0.0554831727833716 161.309350896222 0.283410486340957 154.384394476378 0.769935282500523 -113.309974524756 0.408933481671472 68.751182449038  
                0.0934533448014826 -82.8644896502226 0.207175955084582 157.71548937875  0.274314416005508 -9.72024241134461 0.0538150034076313 -24.6831455428005 
                0.120367518346512 28.2696143847123 0.102082477192163 20.1880856818141 0.0695234638438699 -7.75906876511856 0.0813056280307976 -46.7951498155844 
                0.0550758849511846 -144.678431120036 0.0784772015621453 27.3763078947912 0.0538150034076323 -24.6831455427998 0.971765527618433 2.4392104733042  
! Gamma         0.00700532810617921 122.242156557043 0                0                0                0                0                0                
!               0                0                0                0                0                0                0                0                
!               0                0                0.0080534950689641 109.463341579664 0                0                0                0                
!               0                0                0                0                0                0                0                0                
!               0                0                0                0                0.0110006873659534 83.9450524155161 0                0                
!               0                0                0                0                0                0                0                0                
!               0                0                0                0                0                0                0.0847220521384727 11.5823896181893 
!               0                0                0                0                0                0                0                0                
!               0                0                0                0                0                0                0                0                
!               0.00700533392395788 122.242154977662 0                0                0                0                0                0                
!               0                0                0                0                0                0                0                0                
!               0                0                0.00805351401267011 109.463303205105 0                0                0                0                
!               0                0                0                0                0                0                0                0                
!               0                0                0                0                0.0110001335423959 83.9436013373008 0                0                
!               0                0                0                0                0                0                0                0                
!               0                0                0                0                0                0                0.0853262827912075 11.4960190112574 
! Port Impedance50               0                0                0                0                0                0                0                
!               0                0                0                0                0                0                0                0                
!               0                0                50               0                0                0                0                0                
!               0                0                0                0                0                0                0                0                
!               0                0                0                0                50               0                0                0                
!               0                0                0                0                0                0                0                0                
!               0                0                0                0                0                0                50               0                
!               0                0                0                0                0                0                0                0                
!               0                0                0                0                0                0                0                0                
!               50               0                0                0                0                0                0                0                
!               0                0                0                0                0                0                0                0                
!               0                0                50               0                0                0                0                0                
!               0                0                0                0                0                0                0                0                
!               0                0                0                0                50               0                0                0                
!               0                0                0                0                0                0                0                0                
!               0                0                0                0                0                0                50               0                

6.04                           0.0647210911787089 179.611337079215 0.247062365142647 -136.558087865311 0.3165666853883  158.867711610111 0.0704136638888059 -155.247519663497 
                0.879315378916791 49.0556562871469 0.110351465087491 -124.766737776461 0.151034352511708 124.690655241534 0.116492905681625 12.0779595380716 
                0.247062365142648 -136.558087865311 0.136673150993012 51.0674126475141 0.0943384248399978 -151.119058660998 0.155445978142592 -157.161641951008 
                0.123278331537029 -158.608362025142 0.908443645554492 178.422504700348 0.122213862323196 154.074678801996 0.145913259906016 -1.77770717953957 
                0.316566685388299 158.867711610111 0.0943384248399974 -151.119058660998 0.203999575988635 117.783713071553 0.119981130697319 60.5335616504416 
                0.130107494402056 -90.1326876018081 0.0736916711253076 -2.41763034230545 0.889455584679043 -148.06949007798 0.0607766921787527 -88.1186537646428 
                0.0704136638888059 -155.247519663497 0.155445978142591 -157.161641951008 0.119981130697319 60.5335616504419 0.918530592468633 32.0476429716651 
                0.122360828036786 128.126655550028 0.184221577948584 -154.790055080151 0.154604870465619 5.72140447357884 0.161786892490411 -65.4803301383513 
                0.879315378916791 49.0556562871469 0.123278331537029 -158.608362025143 0.130107494402056 -90.132687601808 0.122360828036787 128.126655550028 
                0.0667233161486553 83.9540128370105 0.265241153377956 -179.676865372075 0.298418670668742 -86.685386015791 0.070998862529608 -106.1138298296  
                0.110351465087492 -124.766737776461 0.908443645554492 178.422504700348 0.0736916711253076 -2.41763034230551 0.184221577948584 -154.79005508015 
                0.265241153377956 -179.676865372075 0.108796864258559 74.1619609623048 0.0640079729609484 6.28893050908827 0.148734892902345 3.31992582001967 
                0.151034352511708 124.690655241533 0.122213862323196 154.074678801996 0.889455584679043 -148.06949007798 0.154604870465619 5.72140447357889 
                0.298418670668742 -86.6853860157909 0.0640079729609492 6.28893050908822 0.175829213292152 84.1273217258273 0.0474361147075167 163.017852193064 
                0.116492905681626 12.0779595380718 0.145913259906015 -1.77770717953975 0.0607766921787534 -88.1186537646437 0.161786892490412 -65.4803301383515 
                0.0709988625296078 -106.113829829601 0.148734892902347 3.31992582001904 0.0474361147075171 163.017852193064 0.94496216979836 -11.195462262668 
! Gamma         0.00701497294738237 122.675040581686 0                0                0                0                0                0                
!               0                0                0                0                0                0                0                0                
!               0                0                0.00805606539224844 109.946549779802 0                0                0                0                
!               0                0                0                0                0                0                0                0                
!               0                0                0                0                0.0109674016959525 84.5741825033495 0                0                
!               0                0                0                0                0                0                0                0                
!               0                0                0                0                0                0                0.0635783834375608 15.4973835794939 
!               0                0                0                0                0                0                0                0                
!               0                0                0                0                0                0                0                0                
!               0.00701497878884279 122.675039007922 0                0                0                0                0                0                
