! Touchstone file exported from HFSS 2020.1.0
!        File:           D:/Users/rblandin/Documents/Ansoft/scatterer_in_waveguide.aedt
!        Generated:      3:08:22  janv. 16, 2025
!        Design:         HFSSDesign1
!        Project:        scatterer_in_waveguide
!        Setup:          scatmat
!        Solution:       Sweep
!
! Variables:
!        $height = 8mm
!        $pos_x = 100mm
!        $pos_x_1 = 28.772922mm
!        $pos_x_2 = 55.98679mm
!        $pos_x_3 = 44.27246mm
!        $pos_y = 25mm
!        $pos_y_1 = 43.348048mm
!        $pos_y_2 = 48.8323mm
!        $pos_y_3 = 236.06804mm
!        $radius = 3.1mm
!
# GHZ S MA R 50.000000
! Terminal data exported
! Port[1] = 1:1
! Port[2] = 1:2
! Port[3] = 1:3
! Port[4] = 1:4
! Port[5] = 2:1
! Port[6] = 2:2
! Port[7] = 2:3
! Port[8] = 2:4
6                              0.647155376979057 -139.071432383908 0.243085766333103 -65.3367204474198 0.209902941521554 102.160318834433 0.0501575545467947 -107.857293511642 
                0.602716723380006 133.036651079492 0.269930713325182 110.633441146741 0.185917974929503 -74.9892873772581 0.0228065938294883 -94.1659899870197 
                0.243085766333103 -65.3367204474199 0.168988644509809 -39.6851336213171 0.104659600121141 6.95998875908016 0.102942912726083 -168.530970468517 
                0.265734449793985 -72.9482375162157 0.878455511524827 45.8753932138579 0.201145064254464 100.717661181094 0.0281182918875771 76.316651379602  
                0.209902941521554 102.160318834433 0.104659600121141 6.95998875908019 0.552397980158124 41.4968149361032 0.0897363059915029 -81.0053821367555 
                0.349282141900324 -176.974699936296 0.140138269627343 -138.653845204541 0.688971592935534 106.802951542541 0.0659384959207765 -84.461572218576 
                0.0501575545467947 -107.857293511642 0.102942912726083 -168.530970468517 0.0897363059915026 -81.0053821367556 0.993348034672264 11.8072537100104 
                0.0439447774308318 77.2826028002429 0.109284281857335 60.1125823671722 0.0979564045066931 81.3350797451831 0.0083045911667244 -145.737479843527 
                0.602716723380005 133.036651079492 0.265734449793985 -72.9482375162158 0.349282141900324 -176.974699936296 0.0439447774308318 77.2826028002428 
                0.446062972986079 -104.558052976364 0.24807351390566 129.291160318121 0.40298544027963 17.5800687529385 0.0790302063352717 60.9336226251103 
                0.269930713325182 110.633441146741 0.878455511524827 45.875393213858  0.140138269627342 -138.653845204541 0.109284281857336 60.1125823671723 
                0.24807351390566 129.291160318121 0.209184274042858 11.5284595706024 0.0974552050781578 -60.1175024783564 0.022584745300943 152.740577986993 
                0.185917974929503 -74.9892873772581 0.201145064254464 100.717661181094 0.688971592935534 106.802951542541 0.0979564045066933 81.3350797451831 
                0.402985440279631 17.5800687529386 0.0974552050781572 -60.1175024783559 0.503445569828763 21.7618874789107 0.0506353818319812 86.2714132348994 
                0.0228065938294884 -94.1659899870196 0.0281182918875772 76.3166513796019 0.0659384959207761 -84.461572218576 0.00830459116672442 -145.737479843527 
                0.0790302063352719 60.9336226251103 0.0225847453009428 152.740577986993 0.0506353818319814 86.2714132348993 0.991547648233224 3.58930762852589 
! Gamma         0.00699567981324294 121.809177491887 0                0                0                0                0                0                
!               0                0                0                0                0                0                0                0                
!               0                0                0.00805116644966082 108.979791380581 0                0                0                0                
!               0                0                0                0                0                0                0                0                
!               0                0                0                0                0.011035002027636 83.3141046364174 0                0                
!               0                0                0                0                0                0                0                0                
!               0                0                0                0                0                0                0.177453272707249 5.50722514270318 
!               0                0                0                0                0                0                0                0                
!               0                0                0                0                0                0                0                0                
!               0.00699566838223356 121.809179404413 0                0                0                0                0                0                
!               0                0                0                0                0                0                0                0                
!               0                0                0.00805106405147485 108.979897058234 0                0                0                0                
!               0                0                0                0                0                0                0                0                
!               0                0                0                0                0.0110350760549552 83.3156850364969 0                0                
!               0                0                0                0                0                0                0                0                
!               0                0                0                0                0                0                0.173232859229497 5.64377486354014 
! Port Impedance50               0                0                0                0                0                0                0                
!               0                0                0                0                0                0                0                0                
!               0                0                50               0                0                0                0                0                
!               0                0                0                0                0                0                0                0                
!               0                0                0                0                50               0                0                0                
!               0                0                0                0                0                0                0                0                
!               0                0                0                0                0                0                50               0                
!               0                0                0                0                0                0                0                0                
!               0                0                0                0                0                0                0                0                
!               50               0                0                0                0                0                0                0                
!               0                0                0                0                0                0                0                0                
!               0                0                50               0                0                0                0                0                
!               0                0                0                0                0                0                0                0                
!               0                0                0                0                50               0                0                0                
!               0                0                0                0                0                0                0                0                
!               0                0                0                0                0                0                50               0                

6.02                           0.684151951018486 -141.633791263924 0.21716365485507 -61.0774057302698 0.16240246686811 123.532413511152 0.0791690939776184 -117.375619099866 
                0.576041068197985 114.473568574188 0.295451198604071 96.1537152860735 0.153678191984485 -60.887927240678 0.0605491490943938 -131.06326936053 
                0.21716365485507 -61.0774057302701 0.199670928993388 -42.5881064275086 0.155857060073257 38.6946738589847 0.118344996110859 -170.752018562554 
                0.321949238091845 -97.8301466551114 0.860681629291929 31.2999353114071 0.118696903067669 101.075630154463 0.0846786881252864 53.7794950149574 
                0.162402466868109 123.532413511152 0.155857060073257 38.6946738589849 0.326780453693183 17.3629125578864 0.153467485594381 -104.182492466535 
                0.173730665836058 125.160022284285 0.0841570411940799 173.500650705624 0.850016110403393 80.985396366288  0.179850243267804 -124.389100538039 
                0.0791690939776163 -117.375619099868 0.118344996110861 -170.752018562554 0.153467485594379 -104.182492466536 0.941375278185341 18.0852055375867 
                0.0917031523232194 25.5961205657416 0.17155029245071 50.7158809847821 0.165763474808503 54.4962883963901 0.0404988738424976 -177.749626218724 
                0.576041068197985 114.473568574188 0.321949238091845 -97.8301466551113 0.173730665836057 125.160022284285 0.0917031523232201 25.5961205657411 
                0.608314104100482 -148.957927297039 0.240519624227075 132.052514293259 0.162028676850553 -10.4187024036387 0.208156234865859 24.434803118673  
                0.295451198604073 96.1537152860732 0.860681629291929 31.2999353114071 0.0841570411940789 173.50065070562  0.17155029245071 50.7158809847819 
                0.240519624227073 132.052514293259 0.195047286878995 -22.4688487420605 0.166044913361188 -104.487686021053 0.0385153126875571 104.546518217592 
                0.153678191984487 -60.8879272406776 0.118696903067668 101.075630154462 0.850016110403392 80.9853963662839 0.165763474808503 54.4962883963902 
                0.162028676850553 -10.4187024036389 0.166044913361187 -104.487686021053 0.328652043527098 -13.0366773050376 0.156861674952144 44.2053361637366 
                0.0605491490943937 -131.06326936053 0.0846786881252891 53.7794950149587 0.179850243267806 -124.389100538039 0.0404988738424977 -177.749626218724 
                0.208156234865859 24.434803118673  0.0385153126875575 104.546518217592 0.156861674952144 44.2053361637366 0.930633490874394 -5.61949642408552 
! Gamma         0.00700532964562861 122.242156528716 0                0                0                0                0                0                
!               0                0                0                0                0                0                0                0                
!               0                0                0.00805365327899031 109.463527977304 0                0                0                0                
!               0                0                0                0                0                0                0                0                
!               0                0                0                0                0.0110007745430554 83.9458689937909 0                0                
!               0                0                0                0                0                0                0                0                
!               0                0                0                0                0                0                0.0841521199051736 11.6607818904216 
!               0                0                0                0                0                0                0                0                
!               0                0                0                0                0                0                0                0                
!               0.00700531818283031 122.242158434395 0                0                0                0                0                0                
!               0                0                0                0                0                0                0                0                
!               0                0                0.00805355027184508 109.463633186858 0                0                0                0                
!               0                0                0                0                0                0                0                0                
!               0                0                0                0                0.0110008411634696 83.9474374911679 0                0                
!               0                0                0                0                0                0                0                0                
!               0                0                0                0                0                0                0.0837193694725289 11.7259499097555 
! Port Impedance50               0                0                0                0                0                0                0                
!               0                0                0                0                0                0                0                0                
!               0                0                50               0                0                0                0                0                
!               0                0                0                0                0                0                0                0                
!               0                0                0                0                50               0                0                0                
!               0                0                0                0                0                0                0                0                
!               0                0                0                0                0                0                50               0                
!               0                0                0                0                0                0                0                0                
!               0                0                0                0                0                0                0                0                
!               50               0                0                0                0                0                0                0                
!               0                0                0                0                0                0                0                0                
!               0                0                50               0                0                0                0                0                
!               0                0                0                0                0                0                0                0                
!               0                0                0                0                50               0                0                0                
!               0                0                0                0                0                0                0                0                
!               0                0                0                0                0                0                50               0                

6.04                           0.679134594749156 -148.964320813346 0.270056264780099 -57.9190335432227 0.331908146301289 117.035295559497 0.0418867431835649 -143.468030412429 
                0.429018602507234 116.44729206027  0.25088401223987 78.3985517683142 0.312392095723109 -77.4350192577319 0.0637811737728542 137.580180792485 
                0.270056264780099 -57.9190335432226 0.153405727727553 -49.6758786309359 0.263794261152942 -5.21609817257715 0.128787861980297 -152.48227584921 
                0.188794089448071 -141.693256015867 0.823543431869744 21.0596547750128 0.261807319106665 111.249261857666 0.15833434609671 -8.93075969014431 
                0.331908146301289 117.035295559497 0.263794261152943 -5.21609817257737 0.578974052166797 77.8715905545589 0.0305999572637756 -170.20245050778 
                0.447634621705064 -122.901065527313 0.152007218698888 -91.7199952568052 0.458139013312425 36.2555586391347 0.153659659183257 134.682342960869 
                0.0418867431835647 -143.468030412432 0.128787861980298 -152.48227584921 0.0305999572637765 -170.202450507782 0.963649885709454 17.8766093301215 
                0.0918243474616219 -106.441207688478 0.160061939188948 21.7274980844846 0.0784417427097851 -15.3334242368634 0.0887688935417694 82.1449500346179 
                0.429018602507233 116.44729206027  0.188794089448071 -141.693256015867 0.447634621705069 -122.901065527312 0.0918243474616219 -106.441207688477 
                0.21310746845923 129.364294268885 0.39703245403422 93.9280440481683 0.567266660322621 40.8298571612928 0.122175434995706 -56.3717007959563 
                0.250884012239872 78.3985517683139 0.823543431869744 21.0596547750129 0.152007218698883 -91.7199952568061 0.160061939188948 21.7274980844844 
                0.397032454034219 93.928044048168  0.116073550172084 -33.2245309846672 0.126422149850413 157.005364215374 0.0948110256223583 -150.477721116679 
                0.312392095723108 -77.4350192577313 0.261807319106665 111.249261857666 0.458139013312431 36.2555586391397 0.0784417427097847 -15.3334242368636 
                0.567266660322621 40.8298571612929 0.126422149850413 157.005364215374 0.487293439566703 41.8026492444606 0.117470905870859 -67.322582137194 
                0.0637811737728545 137.580180792485 0.15833434609671 -8.93075969014298 0.153659659183257 134.68234296087  0.0887688935417694 82.1449500346178 
                0.122175434995707 -56.3717007959557 0.0948110256223576 -150.47772111668 0.11747090587086 -67.3225821371942 0.924867685483837 -21.3946647454924 
! Gamma         0.0070149744928358 122.675040553465 0                0                0                0                0                0                
!               0                0                0                0                0                0                0                0                
!               0                0                0.00805622327683044 109.946735358553 0                0                0                0                
!               0                0                0                0                0                0                0                0                
!               0                0                0                0                0.0109674910167547 84.574993009018  0                0                
!               0                0                0                0                0                0                0                0                
!               0                0                0                0                0                0                0.0633382115236628 15.5560628264836 
!               0                0                0                0                0                0                0                0                
!               0                0                0                0                0                0                0                0                
!               0.00701496299839887 122.675042452348 0                0                0                0                0                0                
