! Touchstone file exported from HFSS 2020.1.0
!        File:           D:/Users/rblandin/Documents/Ansoft/scatterer_in_waveguide.aedt
!        Generated:      5:09:30  janv. 16, 2025
!        Design:         HFSSDesign1
!        Project:        scatterer_in_waveguide
!        Setup:          scatmat
!        Solution:       Sweep
!
! Variables:
!        $height = 7mm
!        $pos_x = 100mm
!        $pos_x_1 = 28.772922mm
!        $pos_x_2 = 55.98679mm
!        $pos_x_3 = 44.27246mm
!        $pos_y = 25mm
!        $pos_y_1 = 43.348048mm
!        $pos_y_2 = 48.8323mm
!        $pos_y_3 = 236.06804mm
!        $radius = 3.1mm
!
# GHZ S MA R 50.000000
! Terminal data exported
! Port[1] = 1:1
! Port[2] = 1:2
! Port[3] = 1:3
! Port[4] = 1:4
! Port[5] = 2:1
! Port[6] = 2:2
! Port[7] = 2:3
! Port[8] = 2:4
6                              0.725674898884328 -104.164852777293 0.431642489248541 -27.3460113123389 0.225720643641144 112.178450770423 0.144460454875898 -133.905343767943 
                0.269299799359005 -78.9548297682254 0.393501562985006 -23.3847120147629 0.0556385876004195 -3.15462081424118 0.0400386176177128 -10.5044032168387 
                0.431642489248542 -27.3460113123389 0.272839510878347 -7.1044680940405 0.14812282757278 -5.88589037997405 0.234223955536093 161.60712642948  
                0.337919334800038 151.52806713192  0.696007679041155 -134.275936695303 0.328098166129543 124.375911209733 0.0200226972492097 -130.07032589502 
                0.225720643641144 112.178450770423 0.14812282757278 -5.88589037997375 0.604557086118814 47.0223830491265 0.246338599123926 -120.681589426612 
                0.391613885079413 14.2441537989706 0.16140677537    40.5990479384979 0.603768701453243 106.413940796746 0.0923494363349865 58.5300166069616 
                0.144460454875899 -133.905343767943 0.234223955536092 161.607126429481 0.246338599123926 -120.681589426612 1.55685198379736 7.45978774782894 
                0.0691985897617568 -150.803693887639 0.25942376533328 -152.668918660478 0.277263942365185 40.3602612907269 0.0323233222766346 -48.5132603195845 
                0.269299799359005 -78.9548297682254 0.337919334800038 151.52806713192  0.391613885079413 14.2441537989707 0.069198589761757 -150.803693887639 
                0.539963139165742 -62.1987053066085 0.364526070426468 165.995748857033 0.467655760323541 -139.464929727846 0.10609453445658 35.2449814351322 
                0.393501562985006 -23.3847120147629 0.696007679041154 -134.275936695303 0.16140677537    40.5990479384979 0.25942376533328 -152.668918660478 
                0.364526070426467 165.995748857033 0.373634880792228 34.241353723235  0.214991543439359 153.455232570264 0.0289890950928193 90.6231692863758 
                0.0556385876004188 -3.15462081424126 0.328098166129543 124.375911209733 0.603768701453244 106.413940796746 0.277263942365185 40.3602612907272 
                0.467655760323541 -139.464929727846 0.21499154343936 153.455232570264 0.489094281189616 23.9353314875237 0.060139229794455 -137.97748691596 
                0.0400386176177129 -10.5044032168386 0.0200226972492098 -130.07032589502 0.0923494363349867 58.5300166069616 0.0323233222766347 -48.5132603195845 
                0.106094534456581 35.2449814351322 0.0289890950928195 90.6231692863761 0.0601392297944552 -137.97748691596 1.11388127056906 1.36050344248555 
! Gamma         0.00699579484971639 121.80916159396  0                0                0                0                0                0                
!               0                0                0                0                0                0                0                0                
!               0                0                0.00805394082140607 108.979571032457 0                0                0                0                
!               0                0                0                0                0                0                0                0                
!               0                0                0                0                0.011047958266872 83.3041792702785 0                0                
!               0                0                0                0                0                0                0                0                
!               0                0                0                0                0                0                0.204854291816848 4.78385803853334 
!               0                0                0                0                0                0                0                0                
!               0                0                0                0                0                0                0                0                
!               0.00699571358042358 121.809162535256 0                0                0                0                0                0                
!               0                0                0                0                0                0                0                0                
!               0                0                0.00805153614193971 108.978764034177 0                0                0                0                
!               0                0                0                0                0                0                0                0                
!               0                0                0                0                0.0110387263201704 83.2997954377243 0                0                
!               0                0                0                0                0                0                0                0                
!               0                0                0                0                0                0                0.208072755221794 4.69495707416544 
! Port Impedance50               0                0                0                0                0                0                0                
!               0                0                0                0                0                0                0                0                
!               0                0                50               0                0                0                0                0                
!               0                0                0                0                0                0                0                0                
!               0                0                0                0                50               0                0                0                
!               0                0                0                0                0                0                0                0                
!               0                0                0                0                0                0                50               0                
!               0                0                0                0                0                0                0                0                
!               0                0                0                0                0                0                0                0                
!               50               0                0                0                0                0                0                0                
!               0                0                0                0                0                0                0                0                
!               0                0                50               0                0                0                0                0                
!               0                0                0                0                0                0                0                0                
!               0                0                0                0                50               0                0                0                
!               0                0                0                0                0                0                0                0                
!               0                0                0                0                0                0                50               0                

6.02                           0.727328349335163 -109.866279858846 0.41134593642882 -27.0592101371116 0.244031723799139 138.699684579183 0.0796786120387745 -106.831833070009 
                0.262688935375773 -110.661358466752 0.364114340557161 -42.6616032928922 0.154370718399887 -2.94394365497526 0.0699216376498399 1.12647528796962 
                0.411345936428848 -27.0592101371116 0.292641814360007 -4.66824416756313 0.0943350449091216 37.5938090036073 0.132158950769935 -161.108643248887 
                0.396942969266156 129.591735123668 0.710831353039561 -152.024492771   0.211294440588171 107.853959309878 0.0542063125796304 -105.720032183949 
                0.244031723799156 138.699684579183 0.0943350449091422 37.5938090036189 0.327312973234753 15.8469711634642 0.183332039251727 -105.629490065509 
                0.228904179626769 -45.7790638462003 0.0546287599878341 -38.9412450194737 0.826663152379875 77.685640125836  0.15308864887584 57.8121743251691 
                0.0796786120387755 -106.831833070011 0.132158950769938 -161.108643248885 0.183332039251806 -105.629490065534 0.924838893161175 17.8248710532843 
                0.0934448941315035 -170.358204656824 0.188201391743248 -128.098448320911 0.200450486506611 51.3059910251452 0.0381073319950236 -4.79576605943106 
                0.262688935375772 -110.661358466752 0.396942969266156 129.591735123674 0.228904179626739 -45.7790638462574 0.0934448941315056 -170.358204656823 
                0.650377518205047 -109.422440395984 0.430339903132837 159.418093228447 0.212596556734404 -154.98404589374 0.173450606419857 41.339182582746  
                0.364114340557159 -42.6616032928922 0.710831353039554 -152.024492771   0.0546287599878981 -38.9412450194869 0.188201391743252 -128.09844832091 
                0.43033990313283 159.418093228444 0.274629417433217 7.63322146774057 0.223512575918681 92.3458090745847 0.0251237886380224 60.4592727103563 
                0.15437071839988 -2.94394365497212 0.211294440588165 107.853959309874 0.826663152379898 77.6856401258404 0.200450486506623 51.3059910251476 
                0.212596556734396 -154.984045893737 0.223512575918666 92.3458090745902 0.268272756624586 -15.0152042768448 0.122379112274369 -139.635139556161 
                0.0699216376498385 1.12647528796801 0.0542063125796139 -105.720032183944 0.153088648875841 57.81217432517   0.0381073319950233 -4.79576605943291 
                0.173450606419855 41.3391825827453 0.0251237886380227 60.459272710356  0.12237911227437 -139.635139556162 0.953322223631961 -2.84918357026184 
! Gamma         0.00700544486774352 122.242140687695 0                0                0                0                0                0                
!               0                0                0                0                0                0                0                0                
!               0                0                0.00805643264350856 109.463308620291 0                0                0                0                
!               0                0                0                0                0                0                0                0                
!               0                0                0                0                0.0110137109638444 83.9360184250747 0                0                
!               0                0                0                0                0                0                0                0                
!               0                0                0                0                0                0                0.0868001599383414 11.3366512035557 
!               0                0                0                0                0                0                0                0                
!               0                0                0                0                0                0                0                0                
!               0.00700536348964824 122.242141625259 0                0                0                0                0                0                
!               0                0                0                0                0                0                0                0                
!               0                0                0.00805402501736887 109.462505174939 0                0                0                0                
!               0                0                0                0                0                0                0                0                
!               0                0                0                0                0.0110044761474946 83.931667527619  0                0                
!               0                0                0                0                0                0                0                0                
!               0                0                0                0                0                0                0.086810704546996 11.2993643808894 
! Port Impedance50               0                0                0                0                0                0                0                
!               0                0                0                0                0                0                0                0                
!               0                0                50               0                0                0                0                0                
!               0                0                0                0                0                0                0                0                
!               0                0                0                0                50               0                0                0                
!               0                0                0                0                0                0                0                0                
!               0                0                0                0                0                0                50               0                
!               0                0                0                0                0                0                0                0                
!               0                0                0                0                0                0                0                0                
!               50               0                0                0                0                0                0                0                
!               0                0                0                0                0                0                0                0                
!               0                0                50               0                0                0                0                0                
!               0                0                0                0                0                0                0                0                
!               0                0                0                0                50               0                0                0                
!               0                0                0                0                0                0                0                0                
!               0                0                0                0                0                0                50               0                

6.04                           0.683851815891733 -110.197017718521 0.459773204952223 -31.4185098369444 0.367993981436349 115.781227111197 0.0597525667759774 -73.3989158622988 
                0.0939839764169841 -119.057621183083 0.347815570445071 -47.1647792765211 0.195800173388037 -62.6640004444377 0.0967258354815893 -50.905910303401 
                0.459773204952265 -31.4185098369382 0.289059511769359 -15.1143614220416 0.257100959968524 22.1584239511856 0.121816380646585 -142.797331271204 
                0.305062722484038 91.4423479485396 0.660713802504373 -164.061788670669 0.261596934120948 129.787272708688 0.13597540402066 -168.203802459008 
                0.36799398143637 115.781227111198 0.25710095996854 22.158423951194  0.476725708072239 97.676567590563  0.03644896652333 -145.916566943195 
                0.329320825319447 91.6865848871214 0.17460333472759 106.393475279397 0.618262818072327 26.3889675055667 0.152470113570784 -27.9663592339757 
                0.0597525667759763 -73.3989158622991 0.121816380646586 -142.797331271204 0.0364489665234814 -145.916566943221 0.962922009824418 18.7307455869895 
                0.13291343762339 86.0564388150201 0.143517026266298 -149.59024600555 0.0903178553016532 -2.56935970310056 0.0579433159036322 -101.478231447776 
                0.0939839764169769 -119.057621183081 0.305062722483962 91.4423479485432 0.329320825319371 91.6865848871075 0.132913437623384 86.0564388150208 
                0.330081131464107 -172.257299363372 0.55064554926557 120.245926852946 0.560308781468173 -116.494654490082 0.136356111577629 -10.8366170847195 
                0.347815570445065 -47.1647792765224 0.660713802504373 -164.061788670671 0.174603334727531 106.393475279392 0.1435170262663  -149.590246005544 
                0.55064554926561 120.245926852947 0.241264176950292 6.66173928736415 0.0823679667545106 0.346867016874996 0.0899823507488732 -136.306654457456 
                0.195800173388018 -62.6640004444407 0.261596934120939 129.787272708675 0.61826281807228 26.3889675055668 0.0903178553016323 -2.56935970308532 
                0.560308781468144 -116.494654490082 0.0823679667544953 0.346867016830247 0.382149948715761 59.524570607061  0.104713412426237 128.756658855153 
                0.0967258354815927 -50.9059103034057 0.135975404020672 -168.203802459036 0.152470113570798 -27.9663592339847 0.0579433159036321 -101.478231447778 
                0.136356111577628 -10.8366170847186 0.0899823507488746 -136.30665445746 0.104713412426237 128.756658855155 0.92428195901016 -18.467845367836 
! Gamma         0.00701508990031808 122.675024768942 0                0                0                0                0                0                
!               0                0                0                0                0                0                0                0                
!               0                0                0.00805900762746468 109.946516982904 0                0                0                0                
!               0                0                0                0                0                0                0                0                
!               0                0                0                0                0.0109804087693264 84.5652158149464 0                0                
!               0                0                0                0                0                0                0                0                
!               0                0                0                0                0                0                0.0645179130137704 15.3145891121834 
!               0                0                0                0                0                0                0                0                
!               0                0                0                0                0                0                0                0                
!               0.00701500841343819 122.6750257028   0                0                0                0                0                0                
