! Touchstone file exported from HFSS 2020.1.0
!        File:           D:/Users/rblandin/Documents/Ansoft/scatterer_in_waveguide.aedt
!        Generated:      5:07:41  janv. 16, 2025
!        Design:         HFSSDesign1
!        Project:        scatterer_in_waveguide
!        Setup:          scatmat
!        Solution:       Sweep
!
! Variables:
!        $height = 2mm
!        $pos_x = 100mm
!        $pos_x_1 = 28.772922mm
!        $pos_x_2 = 55.98679mm
!        $pos_x_3 = 44.27246mm
!        $pos_y = 25mm
!        $pos_y_1 = 43.348048mm
!        $pos_y_2 = 48.8323mm
!        $pos_y_3 = 236.06804mm
!        $radius = 3.1mm
!
# GHZ S MA R 50.000000
! Terminal data exported
! Port[1] = 1:1
! Port[2] = 1:2
! Port[3] = 1:3
! Port[4] = 1:4
! Port[5] = 2:1
! Port[6] = 2:2
! Port[7] = 2:3
! Port[8] = 2:4
6                              0.303019956352125 -175.647329445569 0.0674812810596113 -118.087818049319 0.174601712172677 0.798429312158545 0.0808261996169027 175.551075179397 
                0.916899428315498 82.4463989096491 0.016015016762962 -26.1644750606097 0.121803403571048 -23.5920797398088 0.10844525238927 171.074687532702 
                0.0674812810596114 -118.087818049319 0.104617769396398 94.8886142807472 0.0636271856839075 76.4010984880422 0.0376470986399557 -81.0759536534403 
                0.0243798032968414 -8.07758447572525 0.984326876762078 -158.483058025307 0.0585680219886868 50.8537203250723 0.0273338256313593 -137.333033056673 
                0.174601712172677 0.798429312158552 0.0636271856839076 76.4010984880422 0.0889571430969536 165.718389908226 0.169709228027202 -11.6544464170597 
                0.16394353474224 126.439846105173 0.0603207513642023 -172.906132657919 0.939225018346032 -121.17788071556 0.175821959479959 -19.5193918957469 
                0.0808261996169025 175.551075179397 0.0376470986399556 -81.0759536534404 0.169709228027203 -11.6544464170598 0.925806923347514 1.94728182445818 
                0.0985384830363743 -52.9010895150492 0.0490823106801159 -12.7894804562067 0.162576123992707 -31.7444461882857 0.127665111988918 164.798159318077 
                0.916899428315497 82.4463989096491 0.0243798032968417 -8.07758447572673 0.163943534742239 126.439846105173 0.0985384830363733 -52.9010895150489 
                0.267806365924835 147.870396236326 0.0520523222408514 -158.31567183956 0.190674853635083 115.843582187519 0.121090008624899 -52.3418130596571 
                0.016015016762962 -26.1644750606101 0.984326876762078 -158.483058025307 0.0603207513642024 -172.90613265792 0.0490823106801162 -12.7894804562069 
                0.0520523222408514 -158.31567183956 0.113868715068114 129.279757425539 0.0604434196560287 165.343554283287 0.0233672385322503 -8.86979893716797 
                0.121803403571048 -23.5920797398089 0.0585680219886869 50.8537203250722 0.939225018346032 -121.17788071556 0.162576123992707 -31.7444461882856 
                0.190674853635083 115.843582187519 0.0604434196560288 165.343554283287 0.1329830649785  82.6141487318039 0.168103854254053 -39.0266935869925 
                0.10844525238927 171.074687532702 0.0273338256313593 -137.333033056673 0.175821959479959 -19.519391895747 0.127665111988918 164.798159318078 
                0.1210900086249  -52.3418130596571 0.0233672385322499 -8.86979893716719 0.168103854254053 -39.0266935869925 0.865342659527719 3.67824626018727 
! Gamma         0.00699574078285821 121.809173496495 0                0                0                0                0                0                
!               0                0                0                0                0                0                0                0                
!               0                0                0.00805247120271754 108.979692927739 0                0                0                0                
!               0                0                0                0                0                0                0                0                
!               0                0                0                0                0.0110425529819414 83.3185857950428 0                0                
!               0                0                0                0                0                0                0                0                
!               0                0                0                0                0                0                0.189941408558373 5.15193684967409 
!               0                0                0                0                0                0                0                0                
!               0                0                0                0                0                0                0                0                
!               0.00699569850717711 121.809169401642 0                0                0                0                0                0                
!               0                0                0                0                0                0                0                0                
!               0                0                0.00805135517804006 108.97910293418  0                0                0                0                
!               0                0                0                0                0                0                0                0                
!               0                0                0                0                0.0110354932361406 83.3092344311173 0                0                
!               0                0                0                0                0                0                0                0                
!               0                0                0                0                0                0                0.195897672762189 4.98506563206416 
! Port Impedance50               0                0                0                0                0                0                0                
!               0                0                0                0                0                0                0                0                
!               0                0                50               0                0                0                0                0                
!               0                0                0                0                0                0                0                0                
!               0                0                0                0                50               0                0                0                
!               0                0                0                0                0                0                0                0                
!               0                0                0                0                0                0                50               0                
!               0                0                0                0                0                0                0                0                
!               0                0                0                0                0                0                0                0                
!               50               0                0                0                0                0                0                0                
!               0                0                0                0                0                0                0                0                
!               0                0                50               0                0                0                0                0                
!               0                0                0                0                0                0                0                0                
!               0                0                0                0                50               0                0                0                
!               0                0                0                0                0                0                0                0                
!               0                0                0                0                0                0                50               0                

6.02                           0.228748351990057 173.971323345349 0.0472365885310089 -122.488789825446 0.0684950545837565 12.4005636747568 0.0250988276536262 29.0785955837106 
                0.965868674261704 76.2352095676782 0.0067500434246078 -142.728693953108 0.0222009866512925 8.80380858554533 0.0327360935503744 62.0595928538461 
                0.0472365885302981 -122.488789825192 0.0871662803027504 84.6687889575355 0.0377667928297855 90.4669526634121 0.0535536109978261 -8.84346887400091 
                0.0127467519214512 -64.3107977140348 0.988478747085343 -169.582759890335 0.0371806303275908 50.694586463059  0.021879848192503 141.279476674277 
                0.0684950545837473 12.4005636750856 0.0377667928281872 90.4669526589881 0.0750694568238325 -52.0784954111078 0.035328528654934 37.7889247611492 
                0.0407005404543583 114.729097414422 0.0368051889873009 -173.222102613814 0.983316283132976 -125.480912391027 0.0751799863027895 -143.259887957351 
                0.0250988276536735 29.0785955837994 0.0535536109795633 -8.84346885454099 0.0353285286547035 37.7889247610817 0.961064319007336 -2.99383748056746 
                0.0286586267161461 -125.977589639457 0.0560274587035852 3.78560129211607 0.0381774372634524 -19.5480391347544 0.18880384989968 88.7994565358707 
                0.965868674263539 76.2352095676501 0.0127467519194261 -64.3107977255061 0.0407005404543598 114.729097414333 0.0286586267160699 -125.97758963937 
                0.223118629888719 158.050992430953 0.0461656638927711 -150.641997161291 0.0740869439615304 115.564580948579 0.0358612535627199 179.860589464714 
                0.00675004342471939 -142.728693952931 0.988478747082911 -169.582759890019 0.0368051889870329 -173.222102613659 0.0560274587023423 3.78560129340884 
                0.046165663892934 -150.641997161504 0.0895592781043812 113.966281974772 0.0310263460074915 151.429248399821 0.0232090859613002 -174.769157263118 
                0.022200986651117 8.80380858316317 0.0371806303247994 50.6945864590726 0.983316283130863 -125.480912391056 0.0381774372638972 -19.5480391342831 
                0.0740869439615269 115.564580948458 0.0310263460076415 151.429248399289 0.0862175848310084 -10.6524709016519 0.0709908914525206 -168.691209477905 
                0.0327360935503243 62.0595928537067 0.0218798481847024 141.279476631636 0.0751799863027371 -143.259887957373 0.188803849899795 88.7994565358527 
                0.0358612535626479 179.860589464674 0.0232090859624543 -174.769157261629 0.070990891452444 -168.691209477919 0.978202978614316 0.138978775427644 
! Gamma         0.00700539069719087 122.242152547774 0                0                0                0                0                0                
!               0                0                0                0                0                0                0                0                
!               0                0                0.00805496012725638 109.463429967445 0                0                0                0                
!               0                0                0                0                0                0                0                0                
!               0                0                0                0                0.0110083350968972 83.9503164899329 0                0                
!               0                0                0                0                0                0                0                0                
!               0                0                0                0                0                0                0.0854709790476201 11.4969871240932 
!               0                0                0                0                0                0                0                0                
!               0                0                0                0                0                0                0                0                
!               0.00700534838471763 122.242148467238 0                0                0                0                0                0                
!               0                0                0                0                0                0                0                0                
!               0                0                0.00805384423869994 109.462842576551 0                0                0                0                
!               0                0                0                0                0                0                0                0                
!               0                0                0                0                0.0110012855249239 83.9410354733333 0                0                
!               0                0                0                0                0                0                0                0                
!               0                0                0                0                0                0                0.0858498033858372 11.4230788198593 
! Port Impedance50               0                0                0                0                0                0                0                
!               0                0                0                0                0                0                0                0                
!               0                0                50               0                0                0                0                0                
!               0                0                0                0                0                0                0                0                
!               0                0                0                0                50               0                0                0                
!               0                0                0                0                0                0                0                0                
!               0                0                0                0                0                0                50               0                
!               0                0                0                0                0                0                0                0                
!               0                0                0                0                0                0                0                0                
!               50               0                0                0                0                0                0                0                
!               0                0                0                0                0                0                0                0                
!               0                0                50               0                0                0                0                0                
!               0                0                0                0                0                0                0                0                
!               0                0                0                0                50               0                0                0                
!               0                0                0                0                0                0                0                0                
!               0                0                0                0                0                0                50               0                

6.04                           0.217691206623446 163.040228177193 0.0464186099275171 -118.365672485693 0.0857496632119113 3.22431010900238 0.051752463776796 -91.7928423465082 
                0.963582378675576 66.0261586321596 0.00628831959293113 -88.5003951424694 0.0408005883752209 -17.3704806892907 0.0610144405146036 62.5859454528464 
                0.0464186099297268 -118.36567248933 0.0558145290521694 60.8298421473403 0.0405621360762675 63.1723595733322 0.118259820092452 -94.1596919764635 
                0.0189116476755769 -90.4864690342216 0.977495848736079 179.886414333101 0.0415882580373833 10.9581284815686 0.107926904916819 63.1405050572027 
                0.0857496632119085 3.22431010895037 0.0405621360838222 63.1723595737013 0.0313001606113051 -106.928013164928 0.113144717556887 -40.8362460143613 
                0.0483660287014545 107.201711620666 0.0245522450753389 161.178038284254 0.974533721883025 -140.473589407448 0.109403222689275 129.264902222068 
                0.0517524637767096 -91.7928423468605 0.118259820176748 -94.1596919683612 0.113144717557141 -40.8362460143385 0.20567633320144 73.3809603364823 
                0.0597205019965305 168.915830404957 0.121419772847213 -92.4935757710249 0.116317112291922 -112.884053939052 0.817685766029453 -13.1949334772309 
                0.96358237867542 66.0261586321729 0.0189116476796119 -90.4864690330898 0.0483660287014502 107.201711620686 0.0597205019964693 168.91583040484  
                0.217440773619298 148.272391164042 0.0518296402212549 -162.211238914424 0.0835543994848888 105.348016153768 0.0395773469726422 -39.9627445569454 
                0.00628831959294115 -88.5003951401815 0.977495848727733 179.886414332981 0.0245522450752666 161.178038282983 0.121419772853088 -92.4935757706097 
                0.0518296402213222 -162.2112389141  0.0503562235526907 86.1652312710214 0.0108348166132219 135.330277785603 0.112613325591865 65.5629163151307 
                0.0408005883752876 -17.3704806891549 0.0415882580447817 10.9581284782916 0.974533721883364 -140.473589407451 0.116317112291505 -112.884053939214 
                0.0835543994849154 105.348016153769 0.010834816613713 135.330277787581 0.0650522260916026 -6.90869657747597 0.0917458629847637 54.3215548989971 
                0.0610144405146218 62.5859454526447 0.107926904964368 63.1405050715817 0.10940322268942 129.264902222086 0.817685766029213 -13.1949334772195 
                0.0395773469726241 -39.9627445567907 0.112613325588419 65.5629163142861 0.091745862985037 54.3215548991372 0.351295654832723 23.8668927466963 
! Gamma         0.00701503562630479 122.675036586874 0                0                0                0                0                0                
!               0                0                0                0                0                0                0                0                
!               0                0                0.00805753221922949 109.946637787318 0                0                0                0                
!               0                0                0                0                0                0                0                0                
!               0                0                0                0                0.0109750611705416 84.5794074834008 0                0                
!               0                0                0                0                0                0                0                0                
!               0                0                0                0                0                0                0.063924754587265 15.4337154968482 
!               0                0                0                0                0                0                0                0                
!               0                0                0                0                0                0                0                0                
!               0.00701499327786099 122.675032520552 0                0                0                0                0                0                
