! Touchstone file exported from HFSS 2020.1.0
!        File:           D:/Users/rblandin/Documents/Ansoft/scatterer_in_waveguide.aedt
!        Generated:      5:08:14  janv. 16, 2025
!        Design:         HFSSDesign1
!        Project:        scatterer_in_waveguide
!        Setup:          scatmat
!        Solution:       Sweep
!
! Variables:
!        $height = 3mm
!        $pos_x = 100mm
!        $pos_x_1 = 28.772922mm
!        $pos_x_2 = 55.98679mm
!        $pos_x_3 = 44.27246mm
!        $pos_y = 25mm
!        $pos_y_1 = 43.348048mm
!        $pos_y_2 = 48.8323mm
!        $pos_y_3 = 236.06804mm
!        $radius = 3.1mm
!
# GHZ S MA R 50.000000
! Terminal data exported
! Port[1] = 1:1
! Port[2] = 1:2
! Port[3] = 1:3
! Port[4] = 1:4
! Port[5] = 2:1
! Port[6] = 2:2
! Port[7] = 2:3
! Port[8] = 2:4
6                              0.306734375350085 148.090192792391 0.115741988763475 19.9905497481956 0.312336747501251 111.978424361478 0.214539806537688 134.24736319145  
                0.762091582281252 89.0605409446961 0.0616398398613326 -99.2410513037974 0.305667247781192 76.9452341384904 0.170958649172232 -35.8855663820518 
                0.115741988763476 19.9905497481956 0.158296138426082 99.0514311827675 0.0730725663372352 6.63301341397054 0.0260771389290096 123.432558911893 
                0.0935931930442101 107.110339261787 0.961534240897527 19.6977313294808 0.0826184058042136 -18.2777259121129 0.066789451257008 -175.529422495714 
                0.312336747501251 111.978424361478 0.0730725663372338 6.63301341397082 0.49253565304813 79.9793580084213 0.342799463345697 139.844379780695 
                0.364343659615791 -122.196232319393 0.083560477639154 -53.1122228313189 0.491886344404976 -106.58176504781 0.256193411918162 -51.6498517628866 
                0.214539806537688 134.24736319145  0.0260771389290094 123.432558911895 0.342799463345697 139.844379780695 0.757118130664909 6.04609345740927 
                0.247621053199721 -84.0722924375184 0.118295500868984 -8.54522242317394 0.33718271760707 120.426961719833 0.175478515260322 -11.9856195596699 
                0.762091582281251 89.0605409446961 0.0935931930442094 107.110339261786 0.364343659615791 -122.196232319393 0.24762105319972 -84.0722924375184 
                0.169847680723164 78.8914941698658 0.0325689943679355 -143.315115247357 0.337835649376116 -128.765442235257 0.170547180339746 101.317874159087 
                0.0616398398613336 -99.2410513037971 0.961534240897526 19.6977313294807 0.0835604776391539 -53.1122228313193 0.118295500868985 -8.54522242317408 
                0.032568994367935 -143.315115247358 0.180084602382425 120.003232680114 0.0853173378031518 -72.4058833632429 0.0332647563210249 110.350066157691 
                0.305667247781193 76.9452341384904 0.0826184058042124 -18.2777259121134 0.491886344404976 -106.581765047809 0.337182717607069 120.426961719833 
                0.337835649376116 -128.765442235257 0.0853173378031511 -72.4058833632436 0.519795166468799 42.1148851870522 0.253295601546679 -71.0248964224921 
                0.170958649172232 -35.8855663820519 0.0667894512570077 -175.529422495715 0.256193411918162 -51.6498517628866 0.175478515260322 -11.98561955967  
                0.170547180339746 101.317874159087 0.0332647563210248 110.35006615769  0.25329560154668 -71.0248964224919 0.865120083136176 0.852180015536322 
! Gamma         0.00699566946832036 121.809181803364 0                0                0                0                0                0                
!               0                0                0                0                0                0                0                0                
!               0                0                0.00805105397664797 108.979959572903 0                0                0                0                
!               0                0                0                0                0                0                0                0                
!               0                0                0                0                0.0110364279914238 83.3173361486575 0                0                
!               0                0                0                0                0                0                0                0                
!               0                0                0                0                0                0                0.169561057980881 5.77050041865686 
!               0                0                0                0                0                0                0                0                
!               0                0                0                0                0                0                0                0                
!               0.00699569256184364 121.809174672646 0                0                0                0                0                0                
!               0                0                0                0                0                0                0                0                
!               0                0                0.00805163769508452 108.979588446202 0                0                0                0                
!               0                0                0                0                0                0                0                0                
!               0                0                0                0                0.0110405935889954 83.3117732126205 0                0                
!               0                0                0                0                0                0                0                0                
!               0                0                0                0                0                0                0.180308738081085 5.42971332243907 
! Port Impedance50               0                0                0                0                0                0                0                
!               0                0                0                0                0                0                0                0                
!               0                0                50               0                0                0                0                0                
!               0                0                0                0                0                0                0                0                
!               0                0                0                0                50               0                0                0                
!               0                0                0                0                0                0                0                0                
!               0                0                0                0                0                0                50               0                
!               0                0                0                0                0                0                0                0                
!               0                0                0                0                0                0                0                0                
!               50               0                0                0                0                0                0                0                
!               0                0                0                0                0                0                0                0                
!               0                0                50               0                0                0                0                0                
!               0                0                0                0                0                0                0                0                
!               0                0                0                0                50               0                0                0                
!               0                0                0                0                0                0                0                0                
!               0                0                0                0                0                0                50               0                

6.02                           0.193302080293385 177.732132048188 0.0796514625194576 55.6277680742441 0.111050694777523 -166.292175777743 0.048158289282678 7.844129340087   
                0.963831378760927 73.2308181676598 0.00989193956135016 -145.792151092242 0.0349956960838706 -164.558741680059 0.0609131958268932 -119.219845707595 
                0.0796514625194572 55.6277680742436 0.152333997593619 78.3507314060939 0.0940253809838678 90.9013871967965 0.157420679859476 157.623094137633 
                0.0259362885995894 112.008031829755 0.957116626016279 7.0099670761617  0.0950179450044969 50.2533594335086 0.0574882463427605 125.186280672504 
                0.111050694777523 -166.292175777743 0.0940253809838699 90.9013871967953 0.049963684770941 166.779251885573 0.132647317107804 -156.545828123074 
                0.0670417345890372 -88.5659514225415 0.0810983521055736 -21.5712997261279 0.956470970904259 -128.821071410866 0.13819110475516 -154.716934701406 
                0.0481582892826786 7.84412934008722 0.157420679859476 157.623094137633 0.132647317107806 -156.545828123073 0.903805571206478 -15.3023200849821 
                0.0639625032943361 -109.822507376488 0.168674689089256 -8.91663417191858 0.138789324780091 160.11518421252  0.24493285912847 -105.576847227083 
                0.963831378760929 73.2308181676598 0.0259362885995913 112.008031829762 0.0670417345890364 -88.56595142254  0.0639625032943343 -109.822507376488 
                0.179328940112578 147.636720385448 0.0728095759634496 -150.51335543523 0.116544925136546 -74.8582565658523 0.0562057502548019 -9.38847195380861 
                0.00989193956135034 -145.792151092232 0.957116626016278 7.00996707616181 0.0810983521055754 -21.5712997261275 0.168674689089255 -8.91663417191873 
                0.0728095759634492 -150.513355435229 0.164607187334578 101.17524224227  0.070026718762762 -59.6973549770731 0.056406833966099 -18.7498923726203 
                0.0349956960838702 -164.558741680056 0.0950179450044993 50.2533594335079 0.956470970904258 -128.821071410866 0.138789324780092 160.11518421252  
                0.116544925136546 -74.8582565658527 0.0700267187627624 -59.6973549770729 0.082057987940448 60.255869202413  0.128232333656114 178.888589779805 
                0.0609131958268933 -119.219845707594 0.0574882463427602 125.186280672501 0.138191104755161 -154.716934701406 0.24493285912847 -105.576847227083 
                0.0562057502547995 -9.38847195380931 0.0564068339660989 -18.7498923726203 0.128232333656114 178.888589779805 0.936682754253518 -0.63523285613541 
! Gamma         0.00700531926072323 122.242160824845 0                0                0                0                0                0                
!               0                0                0                0                0                0                0                0                
!               0                0                0.00805353999409794 109.463695424998 0                0                0                0                
!               0                0                0                0                0                0                0                0                
!               0                0                0                0                0.0110021812484265 83.9490761740239 0                0                
!               0                0                0                0                0                0                0                0                
!               0                0                0                0                0                0                0.0833469367805091 11.7875172680011 
!               0                0                0                0                0                0                0                0                
!               0                0                0                0                0                0                0                0                
!               0.00700534239093141 122.242153719502 0                0                0                0                0                0                
!               0                0                0                0                0                0                0                0                
!               0                0                0.0080541244624424 109.46332594181  0                0                0                0                
!               0                0                0                0                0                0                0                0                
!               0                0                0                0                0.01100633738632 83.9435551330662 0                0                
!               0                0                0                0                0                0                0                0                
!               0                0                0                0                0                0                0.0845671778876405 11.624333987193  
! Port Impedance50               0                0                0                0                0                0                0                
!               0                0                0                0                0                0                0                0                
!               0                0                50               0                0                0                0                0                
!               0                0                0                0                0                0                0                0                
!               0                0                0                0                50               0                0                0                
!               0                0                0                0                0                0                0                0                
!               0                0                0                0                0                0                50               0                
!               0                0                0                0                0                0                0                0                
!               0                0                0                0                0                0                0                0                
!               50               0                0                0                0                0                0                0                
!               0                0                0                0                0                0                0                0                
!               0                0                50               0                0                0                0                0                
!               0                0                0                0                0                0                0                0                
!               0                0                0                0                50               0                0                0                
!               0                0                0                0                0                0                0                0                
!               0                0                0                0                0                0                50               0                

6.04                           0.190398879315208 165.951621358718 0.0923942729821686 61.1195753062043 0.157414044938629 176.565759802882 0.0778128413891601 -115.648148642899 
                0.949998405122702 62.2841475257703 0.0247502307905831 -86.645086063312 0.0782887139501396 147.759469023103 0.0921229606543217 -138.155128018546 
                0.0923942729821692 61.1195753062043 0.0774101072127135 56.537494275849  0.0714323056820674 45.3505585797274 0.184164579151994 60.7129155047263 
                0.0409986062545842 65.4322392737134 0.950367025276921 -0.292486787380008 0.0759421549572632 -6.85561636746641 0.158314684686485 36.0541620407679 
                0.157414044938629 176.565759802882 0.0714323056820674 45.3505585797287 0.0877968286518726 134.786785916626 0.153879890565953 107.87685855998  
                0.0776988786003111 -79.1892404512982 0.0280331298494159 -17.5636246362594 0.950122020623899 -142.788856531662 0.125099976691399 103.548916029398 
                0.0778128413891606 -115.648148642899 0.184164579151994 60.7129155047266 0.153879890565951 107.87685855998  0.603179357394594 71.3930443486228 
                0.0983130575549937 148.23989506896  0.195349445611273 -121.088953111297 0.174450247834728 41.0270240866517 0.635337426429991 143.133248170747 
                0.949998405122702 62.2841475257703 0.0409986062545831 65.4322392737123 0.0776988786003093 -79.1892404512975 0.098313057554993 148.239895068958 
                0.189131990597857 135.374586830631 0.104698437400825 -166.183140474589 0.147973199300382 -77.6437920397626 0.061325012272484 110.875693782573 
                0.0247502307905832 -86.6450860633109 0.95036702527692 -0.292486787380031 0.0280331298494162 -17.5636246362581 0.195349445611273 -121.088953111297 
                0.104698437400824 -166.183140474589 0.0702466131770584 63.8379298174255 0.0159561942944092 10.4050546518583 0.168298207175238 -142.944066237501 
                0.0782887139501396 147.759469023102 0.0759421549572629 -6.85561636746629 0.9501220206239  -142.788856531662 0.174450247834728 41.0270240866518 
                0.147973199300382 -77.6437920397625 0.0159561942944088 10.4050546518582 0.0659083549806989 65.7545436904702 0.112018928670233 26.1751090255436 
                0.0921229606543218 -138.155128018545 0.158314684686484 36.0541620407682 0.125099976691397 103.548916029398 0.635337426429992 143.133248170747 
                0.0613250122724818 110.875693782575 0.168298207175239 -142.944066237501 0.112018928670233 26.1751090255435 0.680017563356476 13.2849997174635 
! Gamma         0.00701496406815488 122.675044834361 0                0                0                0                0                0                
!               0                0                0                0                0                0                0                0                
!               0                0                0.00805610918514359 109.946902068973 0                0                0                0                
!               0                0                0                0                0                0                0                0                
!               0                0                0                0                0.0109688786943864 84.5781763201138 0                0                
!               0                0                0                0                0                0                0                0                
!               0                0                0                0                0                0                0.0630275421035557 15.6512913589653 
!               0                0                0                0                0                0                0                0                
!               0                0                0                0                0                0                0                0                
!               0.00701498723499874 122.675037754211 0                0                0                0                0                0                
