! Touchstone file exported from HFSS 2020.1.0
!        File:           D:/Users/rblandin/Documents/Ansoft/scatterer_in_waveguide.aedt
!        Generated:      5:08:44  janv. 16, 2025
!        Design:         HFSSDesign1
!        Project:        scatterer_in_waveguide
!        Setup:          scatmat
!        Solution:       Sweep
!
! Variables:
!        $height = 4mm
!        $pos_x = 100mm
!        $pos_x_1 = 28.772922mm
!        $pos_x_2 = 55.98679mm
!        $pos_x_3 = 44.27246mm
!        $pos_y = 25mm
!        $pos_y_1 = 43.348048mm
!        $pos_y_2 = 48.8323mm
!        $pos_y_3 = 236.06804mm
!        $radius = 3.1mm
!
# GHZ S MA R 50.000000
! Terminal data exported
! Port[1] = 1:1
! Port[2] = 1:2
! Port[3] = 1:3
! Port[4] = 1:4
! Port[5] = 2:1
! Port[6] = 2:2
! Port[7] = 2:3
! Port[8] = 2:4
6                              0.217355495317892 106.850300728154 0.104295786167446 176.731375985126 0.292169376303398 -101.688153771146 0.11727077301735 -134.61124423869 
                0.810683102424916 93.3156330148763 0.0811620254728354 -141.60585804965 0.354421341577285 -140.566904211891 0.14516905216329 -69.3293367132164 
                0.104295786167446 176.731375985126 0.280546777941063 84.4807229662694 0.0123694042018023 107.334671259436 0.08746519625048 134.728963285719 
                0.121778081223075 -102.407981442795 0.93393635331387 -165.701896418684 0.0077251304343913 -34.6155322307407 0.0777368174676868 -35.0283684399402 
                0.292169376303398 -101.688153771146 0.0123694042018025 107.334671259437 0.550022771728099 52.8539906277358 0.127402459967705 90.1310242166201 
                0.389363285330703 32.7189259946055 0.0973517330841919 130.000526252441 0.579785266834507 -86.4778513854777 0.196850767201696 91.3978451547706 
                0.117270773017349 -134.611244238691 0.0874651962504793 134.728963285718 0.127402459967704 90.1310242166194 1.00404813685701 2.99567338528778 
                0.128162854287868 28.9002413400496 0.118873823274792 141.621509302079 0.11501116306804 70.9750245739681 0.0734344757809102 74.0776781128663 
                0.810683102424916 93.3156330148762 0.121778081223075 -102.407981442795 0.389363285330703 32.7189259946055 0.128162854287868 28.9002413400501 
                0.143518718629703 29.640004977478  0.0696497587502682 -113.192051430209 0.315895860455439 30.36243720141   0.1185199197397  67.7833606568573 
                0.0811620254728351 -141.60585804965 0.93393635331387 -165.701896418684 0.0973517330841913 130.000526252441 0.118873823274792 141.621509302079 
                0.0696497587502687 -113.192051430209 0.285452760081219 119.224924539484 0.0948949044649383 113.572945318643 0.0395382975787907 38.5149828032309 
                0.354421341577284 -140.566904211891 0.00772513043439143 -34.6155322307387 0.579785266834508 -86.4778513854775 0.115011163068041 70.9750245739683 
                0.31589586045544 30.3624372014098 0.0948949044649409 113.572945318644 0.559057345786415 16.4117465046571 0.201444035414431 72.645817212436  
                0.14516905216329 -69.3293367132164 0.0777368174676863 -35.0283684399402 0.196850767201696 91.3978451547707 0.0734344757809104 74.0776781128668 
                0.1185199197397  67.7833606568573 0.0395382975787907 38.5149828032313 0.20144403541443 72.6458172124362 0.943417380316416 2.89565330777202 
! Gamma         0.00699567735801791 121.809172811741 0                0                0                0                0                0                
!               0                0                0                0                0                0                0                0                
!               0                0                0.00805100896208109 108.979532356987 0                0                0                0                
!               0                0                0                0                0                0                0                0                
!               0                0                0                0                0.0110315095458151 83.3091208863652 0                0                
!               0                0                0                0                0                0                0                0                
!               0                0                0                0                0                0                0.189304982898751 5.15602060629222 
!               0                0                0                0                0                0                0                0                
!               0                0                0                0                0                0                0                0                
!               0.00699567657140926 121.809175980962 0                0                0                0                0                0                
!               0                0                0                0                0                0                0                0                
!               0                0                0.00805087113239575 108.97950713573  0                0                0                0                
!               0                0                0                0                0                0                0                0                
!               0                0                0                0                0.0110324723598581 83.3108075273982 0                0                
!               0                0                0                0                0                0                0                0                
!               0                0                0                0                0                0                0.192062852204691 5.0823216380034  
! Port Impedance50               0                0                0                0                0                0                0                
!               0                0                0                0                0                0                0                0                
!               0                0                50               0                0                0                0                0                
!               0                0                0                0                0                0                0                0                
!               0                0                0                0                50               0                0                0                
!               0                0                0                0                0                0                0                0                
!               0                0                0                0                0                0                50               0                
!               0                0                0                0                0                0                0                0                
!               0                0                0                0                0                0                0                0                
!               50               0                0                0                0                0                0                0                
!               0                0                0                0                0                0                0                0                
!               0                0                50               0                0                0                0                0                
!               0                0                0                0                0                0                0                0                
!               0                0                0                0                50               0                0                0                
!               0                0                0                0                0                0                0                0                
!               0                0                0                0                0                0                50               0                

6.02                           0.136920561519699 -170.02869330481 0.125496042297579 -113.710076656894 0.184729032450772 14.6108728015022 0.0600050064651468 117.41327252526  
                0.948660263769044 69.0379516357804 0.0245267286288074 -61.8394549070895 0.0771728140112801 13.9777350068898 0.106945840575359 -129.538254414695 
                0.125496042297601 -113.710076656901 0.246683231996701 43.8404521276296 0.237786765476902 64.8865885504803 0.347559348257261 117.730236824488 
                0.081834093781521 -65.428517846909 0.805524838940004 -176.612228556724 0.244733074729902 29.119410277219  0.13084056052508 -92.2124497110219 
                0.184729032450768 14.6108728015005 0.237786765476883 64.8865885504848 0.186881364477167 104.136154796875 0.370538479461303 164.897209663004 
                0.123168106443698 50.6002542956001 0.180782652695443 103.222512246033 0.793746174094176 -133.095032076846 0.199459092692669 -2.8202417190413 
                0.0600050064651402 117.41327252526  0.347559348257259 117.730236824488 0.370538479461304 164.897209663002 0.535878227658347 -35.2259285674433 
                0.175528405970546 64.9737104480295 0.392408724202019 138.221656278912 0.380657325411354 132.229925991345 0.270396125283159 36.5349420787996 
                0.948660263769044 69.0379516357806 0.0818340937815172 -65.4285178469132 0.123168106443697 50.6002542955987 0.175528405970545 64.9737104480279 
                0.0960991739608282 139.291982598212 0.0835716994538893 -122.670932508723 0.136594435870098 78.6833820905834 0.0508685582192638 -37.4452721153262 
                0.02452672862881 -61.8394549070931 0.805524838940032 -176.612228556725 0.180782652695443 103.222512246032 0.39240872420202 138.221656278911 
                0.0835716994538849 -122.670932508731 0.306414573103428 76.6415336203503 0.175919591735086 66.1302126811808 0.122302308428856 -60.8698151584563 
                0.077172814011279 13.977735006884  0.244733074729901 29.1194102772188 0.793746174094161 -133.095032076845 0.380657325411357 132.229925991343 
                0.1365944358701  78.6833820905832 0.175919591735091 66.1302126811788 0.232823776200746 40.9224381547724 0.179456848514387 -28.6851233880548 
                0.10694584057536 -129.538254414696 0.130840560525084 -92.2124497110187 0.19945909269267 -2.8202417190426 0.270396125283159 36.5349420787996 
                0.0508685582192649 -37.445272115326 0.122302308428855 -60.8698151584561 0.17945684851439 -28.685123388053 0.891079121440185 1.8679581701174  
! Gamma         0.00700532721255929 122.24215186516  0                0                0                0                0                0                
!               0                0                0                0                0                0                0                0                
!               0                0                0.00805349693954497 109.46327009891  0                0                0                0                
!               0                0                0                0                0                0                0                0                
!               0                0                0                0                0.0109973090404253 83.9409227605786 0                0                
!               0                0                0                0                0                0                0                0                
!               0                0                0                0                0                0                0.0852313317009484 11.4988998295362 
!               0                0                0                0                0                0                0                0                
!               0                0                0                0                0                0                0                0                
!               0.00700532641009845 122.242155023138 0                0                0                0                0                0                
!               0                0                0                0                0                0                0                0                
!               0                0                0.0080533592800646 109.463244988679 0                0                0                0                
!               0                0                0                0                0                0                0                0                
!               0                0                0                0                0.0109982610336239 83.9425967010174 0                0                
!               0                0                0                0                0                0                0                0                
!               0                0                0                0                0                0                0.0854814158655447 11.465998893655  
! Port Impedance50               0                0                0                0                0                0                0                
!               0                0                0                0                0                0                0                0                
!               0                0                50               0                0                0                0                0                
!               0                0                0                0                0                0                0                0                
!               0                0                0                0                50               0                0                0                
!               0                0                0                0                0                0                0                0                
!               0                0                0                0                0                0                50               0                
!               0                0                0                0                0                0                0                0                
!               0                0                0                0                0                0                0                0                
!               50               0                0                0                0                0                0                0                
!               0                0                0                0                0                0                0                0                
!               0                0                50               0                0                0                0                0                
!               0                0                0                0                0                0                0                0                
!               0                0                0                0                50               0                0                0                
!               0                0                0                0                0                0                0                0                
!               0                0                0                0                0                0                50               0                

6.04                           0.152539820483092 169.43233305826  0.154717395556769 -125.275820815387 0.231475552697283 -10.7840331603652 0.0721828992168316 35.4853111623223 
                0.927788099788421 57.6437624100979 0.0538881609479649 -104.960189790704 0.114758627662623 -39.2486024721056 0.100916851764896 -158.69409074675 
                0.154717395556769 -125.275820815386 0.0910185247023298 51.8505559124307 0.0877343449212677 29.447811015224  0.181376926807614 36.964798916741  
                0.0719516921607796 -132.987514805694 0.934507174654973 179.861845271723 0.0991634844477327 -19.5258263156891 0.166242461204489 -167.672328331326 
                0.231475552697284 -10.7840331603652 0.0877343449212687 29.4478110152236 0.112104036858317 111.552802753656 0.157951742678966 79.7802983103724 
                0.103542209561268 95.3243355623605 0.0349202873601635 -177.236178402205 0.92769030723175 -144.740848933379 0.111128410336271 -98.6164620198592 
                0.0721828992168326 35.4853111623218 0.181376926807614 36.9647989167413 0.157951742678966 79.7802983103728 0.818880511070255 46.5095844572874 
                0.121615598181396 -40.0354206397557 0.203730644392317 40.8056990771371 0.185021254017501 23.2746598923395 0.372753149593868 -55.1590092373476 
                0.92778809978842 57.6437624100979 0.0719516921607799 -132.987514805693 0.103542209561268 95.3243355623605 0.121615598181396 -40.0354206397551 
                0.144464726129159 120.151719395347 0.165775233025382 -170.180541516227 0.212344996516418 99.287556735854  0.0757669825789882 99.7549421619287 
                0.0538881609479649 -104.960189790703 0.934507174654972 179.861845271723 0.0349202873601631 -177.236178402206 0.203730644392317 40.8056990771373 
                0.165775233025383 -170.180541516227 0.0801554895945069 65.4920665396322 0.0362428450733461 -154.158016022207 0.177560223218261 -160.745816362249 
                0.114758627662624 -39.2486024721052 0.0991634844477338 -19.5258263156899 0.92769030723175 -144.740848933379 0.185021254017502 23.2746598923403 
                0.212344996516418 99.2875567358543 0.0362428450733458 -154.158016022206 0.0742996063332239 73.1413477343435 0.104635632692149 -174.907088418015 
                0.100916851764896 -158.69409074675 0.166242461204487 -167.672328331327 0.111128410336271 -98.6164620198591 0.372753149593867 -55.1590092373477 
                0.0757669825789888 99.7549421619287 0.177560223218262 -160.745816362249 0.10463563269215 -174.907088418017 0.864532790743642 0.149886507826006 
! Gamma         0.00701497208129797 122.675035906384 0                0                0                0                0                0                
!               0                0                0                0                0                0                0                0                
!               0                0                0.00805606807413729 109.946478614043 0                0                0                0                
!               0                0                0                0                0                0                0                0                
!               0                0                0                0                0.0109640521268118 84.5700835788166 0                0                
!               0                0                0                0                0                0                0                0                
!               0                0                0                0                0                0                0.0637562059691383 15.4350842129321 
!               0                0                0                0                0                0                0                0                
!               0                0                0                0                0                0                0                0                
!               0.00701497126296467 122.675039053199 0                0                0                0                0                0                
