! Touchstone file exported from HFSS 2020.1.0
!        File:           D:/Users/rblandin/Documents/Ansoft/scatterer_in_waveguide.aedt
!        Generated:      5:09:17  janv. 16, 2025
!        Design:         HFSSDesign1
!        Project:        scatterer_in_waveguide
!        Setup:          scatmat
!        Solution:       Sweep
!
! Variables:
!        $height = 6mm
!        $pos_x = 100mm
!        $pos_x_1 = 28.772922mm
!        $pos_x_2 = 55.98679mm
!        $pos_x_3 = 44.27246mm
!        $pos_y = 25mm
!        $pos_y_1 = 43.348048mm
!        $pos_y_2 = 48.8323mm
!        $pos_y_3 = 236.06804mm
!        $radius = 3.1mm
!
# GHZ S MA R 50.000000
! Terminal data exported
! Port[1] = 1:1
! Port[2] = 1:2
! Port[3] = 1:3
! Port[4] = 1:4
! Port[5] = 2:1
! Port[6] = 2:2
! Port[7] = 2:3
! Port[8] = 2:4
6                              0.361270629151577 -57.3985476922949 0.400123601060675 -152.863124533466 0.18588202412917 -61.9323438127695 0.109088614895213 92.8810976975216 
                0.73049234644531 -108.317940808346 0.322592447439587 39.3316229017342 0.131945383861728 -176.331113091066 0.0789116675634782 44.98191382058   
                0.400123601060675 -152.863124533466 0.163567628898817 17.2297408722673 0.238731195782046 2.18664442822296 0.176230540856021 175.394819019174 
                0.233023406850276 33.664705098572  0.737969700442079 30.7326131562129 0.373960922414604 -20.9604461741307 0.0305172858289671 -9.50550292402563 
                0.185882024129171 -61.9323438127698 0.238731195782047 2.186644428223   0.616329227672876 52.0746628023311 0.22762293792915 -110.473558360564 
                0.360196297118998 -159.141035774877 0.23254034203502 -139.259638840446 0.556958961302367 -77.660488837612 0.070490270983951 -80.2223030419105 
                0.109088614895213 92.8810976975217 0.176230540856023 175.394819019174 0.227622937929151 -110.473558360563 1.18372781092229 7.76857315454156 
                0.07822347417391 15.0576987105876 0.190773938699045 39.5274694545112 0.254511608238719 -126.128312675008 0.0298147195355312 -160.318700408906 
                0.73049234644531 -108.317940808346 0.233023406850276 33.6647050985721 0.360196297118999 -159.141035774877 0.0782234741739098 15.0576987105875 
                0.341825477216722 -13.9041674437837 0.248557720960499 -141.537235594104 0.290783175955694 -127.334591336893 0.0661432623671176 71.9478234892082 
                0.322592447439588 39.3316229017342 0.737969700442079 30.732613156213  0.232540342035021 -139.259638840446 0.190773938699044 39.5274694545107 
                0.248557720960498 -141.537235594104 0.331216956997691 58.3359214578684 0.315453309349979 -166.221994828981 0.0521375722237604 151.344224410241 
                0.131945383861728 -176.331113091065 0.373960922414605 -20.9604461741307 0.556958961302368 -77.660488837612 0.254511608238718 -126.128312675009 
                0.290783175955694 -127.334591336893 0.315453309349978 -166.221994828981 0.555663876707135 18.624481728944  0.0538508211695287 -111.396651766948 
                0.0789116675634779 44.98191382058   0.0305172858289672 -9.50550292402577 0.0704902709839513 -80.2223030419104 0.029814719535531 -160.318700408906 
                0.0661432623671176 71.9478234892083 0.0521375722237607 151.344224410241 0.0538508211695289 -111.396651766948 0.990779977725233 4.11642031621538 
! Gamma         0.00699567499290103 121.80917105319  0                0                0                0                0                0                
!               0                0                0                0                0                0                0                0                
!               0                0                0.00805088381083065 108.979424156492 0                0                0                0                
!               0                0                0                0                0                0                0                0                
!               0                0                0                0                0.0110314934231495 83.308257344157  0                0                
!               0                0                0                0                0                0                0                0                
!               0                0                0                0                0                0                0.192276803485694 5.07370319483062 
!               0                0                0                0                0                0                0                0                
!               0                0                0                0                0                0                0                0                
!               0.00699568582413318 121.809174840994 0                0                0                0                0                0                
!               0                0                0                0                0                0                0                0                
!               0                0                0.00805092492413936 108.979408162684 0                0                0                0                
!               0                0                0                0                0                0                0                0                
!               0                0                0                0                0.0110349165050919 83.3121002692902 0                0                
!               0                0                0                0                0                0                0                0                
!               0                0                0                0                0                0                0.185643460917999 5.26414911173936 
! Port Impedance50               0                0                0                0                0                0                0                
!               0                0                0                0                0                0                0                0                
!               0                0                50               0                0                0                0                0                
!               0                0                0                0                0                0                0                0                
!               0                0                0                0                50               0                0                0                
!               0                0                0                0                0                0                0                0                
!               0                0                0                0                0                0                50               0                
!               0                0                0                0                0                0                0                0                
!               0                0                0                0                0                0                0                0                
!               50               0                0                0                0                0                0                0                
!               0                0                0                0                0                0                0                0                
!               0                0                50               0                0                0                0                0                
!               0                0                0                0                0                0                0                0                
!               0                0                0                0                50               0                0                0                
!               0                0                0                0                0                0                0                0                
!               0                0                0                0                0                0                50               0                

6.02                           0.284102302055318 -75.510948054588 0.368056052578844 -155.973206296245 0.264763850532376 -13.7648475004434 0.057117933596423 107.136740410734 
                0.795707212701807 -129.758513213525 0.215408315790586 17.2858810329418 0.0655103677632742 27.0235020346454 0.124063146934686 15.9166830439835 
                0.368056052578843 -155.973206296246 0.180189863493965 36.0622125893262 0.129402694044915 -5.66947065777621 0.189296921731836 -153.345443434841 
                0.261375722406593 13.1543381115549 0.800933959146597 14.2341975877522 0.244640894101514 -43.7668213924787 0.0383923956294716 10.5243157995841 
                0.264763850532376 -13.7648475004426 0.129402694044918 -5.66947065776891 0.254184783169649 25.3555148265306 0.261267684735497 -104.530164675026 
                0.148192023619567 159.072481016907 0.104987480996157 136.245687695546 0.843881950315028 -112.193352069056 0.105258238833899 -134.495518116621 
                0.0571179335964241 107.136740410732 0.189296921731832 -153.345443434842 0.261267684735496 -104.530164675026 0.850109787715184 26.5173081970971 
                0.149148150972489 2.1375724292515  0.250362326236075 52.806206200437  0.280662030353904 -129.832997022306 0.0327168906594962 -162.878723478577 
                0.795707212701806 -129.758513213525 0.261375722406592 13.1543381115556 0.148192023619567 159.072481016907 0.149148150972489 2.13757242925134 
                0.239641254076677 -62.7324343366178 0.381832176821774 -158.582777079714 0.160671046804491 -91.7289477722462 0.0971524148605292 41.3704447806874 
                0.215408315790592 17.2858810329428 0.800933959146594 14.2341975877518 0.104987480996155 136.245687695547 0.250362326236072 52.8062062004373 
                0.381832176821774 -158.582777079714 0.195303053959127 35.9223349712757 0.195846126422409 119.079792536389 0.0353024007656137 121.02955220087  
                0.0655103677632734 27.0235020346489 0.244640894101511 -43.7668213924791 0.843881950315032 -112.193352069056 0.280662030353906 -129.832997022306 
                0.160671046804489 -91.7289477722463 0.195846126422412 119.079792536388 0.211314481546776 -27.3081301656675 0.0995598017077393 -157.500548002096 
                0.124063146934686 15.9166830439835 0.038392395629471 10.524315799585  0.105258238833899 -134.49551811662 0.0327168906594961 -162.878723478579 
                0.097152414860529 41.3704447806872 0.0353024007656138 121.029552200869 0.0995598017077386 -157.500548002096 0.970976522676405 -1.33346462383599 
! Gamma         0.00700532484579789 122.242150112829 0                0                0                0                0                0                
!               0                0                0                0                0                0                0                0                
!               0                0                0.00805337255986875 109.463162376823 0                0                0                0                
!               0                0                0                0                0                0                0                0                
!               0                0                0                0                0.0109972897654957 83.9400657160236 0                0                
!               0                0                0                0                0                0                0                0                
!               0                0                0                0                0                0                0.0854603283475661 11.4621782260265 
!               0                0                0                0                0                0                0                0                
!               0                0                0                0                0                0                0                0                
!               0.0070053356789572 122.242153887257 0                0                0                0                0                0                
!               0                0                0                0                0                0                0                0                
!               0                0                0.00805341256210435 109.46314645277  0                0                0                0                
!               0                0                0                0                0                0                0                0                
!               0                0                0                0                0.0110006931513192 83.9438797178957 0                0                
!               0                0                0                0                0                0                0                0                
!               0                0                0                0                0                0                0.084973268957124 11.5478459831153 
! Port Impedance50               0                0                0                0                0                0                0                
!               0                0                0                0                0                0                0                0                
!               0                0                50               0                0                0                0                0                
!               0                0                0                0                0                0                0                0                
!               0                0                0                0                50               0                0                0                
!               0                0                0                0                0                0                0                0                
!               0                0                0                0                0                0                50               0                
!               0                0                0                0                0                0                0                0                
!               0                0                0                0                0                0                0                0                
!               50               0                0                0                0                0                0                0                
!               0                0                0                0                0                0                0                0                
!               0                0                50               0                0                0                0                0                
!               0                0                0                0                0                0                0                0                
!               0                0                0                0                50               0                0                0                
!               0                0                0                0                0                0                0                0                
!               0                0                0                0                0                0                50               0                

6.04                           0.191731590114096 -57.5646855304376 0.402340407488361 -158.509223082979 0.414983426942688 -39.0080781043769 0.0790843950389367 -179.511515299174 
                0.715368123243199 -149.30647735525 0.227370156794829 24.0709678269869 0.179534459525882 -71.5735111043269 0.134416252261727 -7.94365346876303 
                0.402340407488364 -158.509223082979 0.231173836137888 39.4669499814327 0.129245206644821 43.4147651217998 0.115731475711006 -158.79026065602 
                0.221468406158118 -15.0058705668569 0.807937721312486 -4.79383992881462 0.175017086357564 -26.787505944497 0.113677446617836 -4.72671229079473 
                0.414983426942688 -39.0080781043769 0.129245206644819 43.4147651218013 0.314770208961983 112.446716041387 0.0725548197273033 -138.370743870767 
                0.157390839427728 -89.5558980759004 0.146808580000166 -29.9510525277144 0.797434038504113 -154.219274061473 0.0572298712132714 143.449374563465 
                0.0790843950389368 -179.511515299175 0.115731475711006 -158.790260656021 0.0725548197273027 -138.370743870767 0.95648695108178 24.5432424173719 
                0.137602425524961 -64.8421006445166 0.144164884629109 18.1122092304416 0.11213734294476 176.111142301061 0.0392255535497608 -55.9473884930726 
                0.715368123243197 -149.30647735525 0.221468406158118 -15.0058705668575 0.157390839427728 -89.5558980759003 0.137602425524961 -64.8421006445168 
                0.11950272020551 -82.5914754296172 0.426173833642458 161.812353176309 0.421231464334558 -96.6540739326616 0.0833919824731722 54.9250835919378 
                0.227370156794828 24.0709678269874 0.807937721312488 -4.79383992881475 0.146808580000167 -29.9510525277144 0.14416488462911 18.1122092304413 
                0.426173833642458 161.812353176309 0.199960798709902 61.3364168578736 0.0754067116490161 -23.2519428437336 0.0996923804029205 179.796870305644 
                0.179534459525883 -71.5735111043275 0.175017086357563 -26.7875059444971 0.797434038504113 -154.219274061473 0.11213734294476 176.111142301062 
                0.421231464334559 -96.6540739326616 0.075406711649014 -23.2519428437333 0.285299100496366 73.8058098889959 0.0130410906642442 150.310209027642 
                0.134416252261727 -7.94365346876324 0.113677446617835 -4.72671229079494 0.0572298712132705 143.449374563464 0.03922555354976 -55.9473884930731 
                0.0833919824731721 54.9250835919378 0.0996923804029212 179.796870305644 0.0130410906642444 150.310209027636 0.963344551908714 -18.3089885361696 
! Gamma         0.00701496971329944 122.675034160227 0                0                0                0                0                0                
!               0                0                0                0                0                0                0                0                
!               0                0                0.00805594445782895 109.946371365638 0                0                0                0                
!               0                0                0                0                0                0                0                0                
!               0                0                0                0                0.0109640297757149 84.569232908265  0                0                
!               0                0                0                0                0                0                0                0                
!               0                0                0                0                0                0                0.0638366307571966 15.4077454028721 
!               0                0                0                0                0                0                0                0                
!               0                0                0                0                0                0                0                0                
!               0.00701498054834829 122.675037921375 0                0                0                0                0                0                
